Circuit: * D:\Facultate\VUB_sem1\Analog Electronics\AE\LTSpice\final_project.asc

Warning: No WPE as none of SCA, SCB, SCC, SC is given and/or SC not positive.
Warning: LTspice uses BSIM4 version 4.6.1. Your model specified an unrecognized version number: 4.5000e+00
Warning:  Acde = 0.0146993 is too small.
Warning: No WPE as none of SCA, SCB, SCC, SC is given and/or SC not positive.
Warning: LTspice uses BSIM4 version 4.6.1. Your model specified an unrecognized version number: 4.5000e+00
Warning:  Acde = 0.0146993 is too small.
Warning: No WPE as none of SCA, SCB, SCC, SC is given and/or SC not positive.
Warning: LTspice uses BSIM4 version 4.6.1. Your model specified an unrecognized version number: 4.5000e+00
Warning:  Acde = 0.0146993 is too small.
Warning: No WPE as none of SCA, SCB, SCC, SC is given and/or SC not positive.
Warning: LTspice uses BSIM4 version 4.6.1. Your model specified an unrecognized version number: 4.5000e+00
Warning: No WPE as none of SCA, SCB, SCC, SC is given and/or SC not positive.
Warning: LTspice uses BSIM4 version 4.6.1. Your model specified an unrecognized version number: 4.5000e+00
Warning: No WPE as none of SCA, SCB, SCC, SC is given and/or SC not positive.
Warning: LTspice uses BSIM4 version 4.6.1. Your model specified an unrecognized version number: 4.5000e+00
Warning: No WPE as none of SCA, SCB, SCC, SC is given and/or SC not positive.
Warning: LTspice uses BSIM4 version 4.6.1. Your model specified an unrecognized version number: 4.5000e+00
Warning: No WPE as none of SCA, SCB, SCC, SC is given and/or SC not positive.
Warning: LTspice uses BSIM4 version 4.6.1. Your model specified an unrecognized version number: 4.5000e+00
Direct Newton iteration for .op point succeeded.
Semiconductor Device Operating Points:
                        --- BSIM4 MOSFETS ---
Name:      mn6         mn3         mn4         mp5         mp2
Model: n_11_sprvt  n_11_sprvt  n_11_sprvt  p_11_sprvt  p_11_sprvt
Id:      1.07e-03    8.95e-05    8.94e-05   -1.07e-03   -8.95e-05
Vgs:     2.26e-01    2.26e-01    2.26e-01   -4.07e-01   -2.94e-01
Vds:     4.99e-01    2.26e-01    2.26e-01   -6.01e-01   -3.48e-01
Vbs:     0.00e+00    0.00e+00    0.00e+00    0.00e+00    0.00e+00
Vth:     1.22e-01    1.21e-01    1.21e-01   -2.08e-01   -2.78e-01
Vdsat:   6.08e-02    6.18e-02    6.18e-02   -1.78e-01   -7.58e-02
Gm:      2.12e-02    1.84e-03    1.84e-03    8.99e-03    1.57e-03
Gds:     5.61e-04    6.96e-05    6.97e-05    2.13e-04    5.77e-05
Gmb      1.69e-03    1.35e-04    1.35e-04    7.90e-04    1.21e-04
Cbd:     1.70e-13    1.86e-14    1.86e-14    1.12e-13    1.90e-14
Cbs:     2.08e-13    2.05e-14    2.05e-14    1.75e-13    2.56e-14

Name:      mp1         mp7         mp8
Model: p_11_sprvt  p_11_sprvt  p_11_sprvt
Id:     -8.95e-05   -1.79e-04   -1.02e-03
Vgs:    -2.94e-01   -4.07e-01   -4.07e-01
Vds:    -3.48e-01   -5.26e-01   -4.07e-01
Vbs:     0.00e+00    0.00e+00    0.00e+00
Vth:    -2.78e-01   -2.08e-01   -2.06e-01
Vdsat:  -7.58e-02   -1.79e-01   -1.80e-01
Gm:      1.57e-03    1.51e-03    8.58e-03
Gds:     5.78e-05    4.02e-05    3.12e-04
Gmb      1.21e-04    1.33e-04    7.42e-04
Cbd:     1.90e-14    2.00e-14    1.25e-13
Cbs:     2.56e-14    2.99e-14    1.75e-13



Date: Sun Jan 24 22:42:26 2021
Total elapsed time: 0.086 seconds.

tnom = 27
temp = 27
method = trap
totiter = 14
traniter = 0
tranpoints = 0
accept = 0
rejected = 0
matrix size = 29
fillins = 12
solver = Normal
Matrix Compiler1:     151 opcodes
Matrix Compiler2: 2.92 KB object code size
